T3F74 000:001.101   SEGGER J-Link V9.14a Log File
T3F74 000:001.205   DLL Compiled: Jan 28 2026 17:11:52
T3F74 000:001.209   Logging started @ 2026-08-07 04:40
T3F74 000:001.212   Process: C:\Users\qq292\.eclipse\com.renesas.platform_275973119\DebugComp\RA\e2-server-gdb.exe
T3F74 000:001.221 - 1.217ms 
T3F74 000:001.236 JLINK_GetDLLVersion()
T3F74 000:001.240 - 0.004ms returns 91401
T3F74 000:003.159 JLINK_OpenEx(...)
T3F74 000:009.511   Firmware: J-Link Pro V4 V11 PLUS Feb compiled 20 2025 16:24:17 
T3F74 000:010.510   Firmware: J-Link Pro V4 V11 PLUS Feb compiled 20 2025 16:24:17 
T3F74 000:010.610   Decompressing FW timestamp took 81 us
T3F74 000:012.706   Hardware: V11.00
T3F74 000:012.712   S/N: 601023993
T3F74 000:012.716   OEM: SEGGER
T3F74 000:012.721   Feature(s): FlashBP, GDB, JFlash, FlashDL, RDI
T3F74 000:013.777   Bootloader: (FW returned invalid version)
T3F74 000:014.414   USB speed mode: High speed (480 MBit/s)
T3F74 000:014.755   TELNET listener socket opened on port 19021
T3F74 000:014.862   WEBSRV WEBSRV_Init(): Starting webserver thread(s)
T3F74 000:015.019   WEBSRV Webserver running on local port 19080
T3F74 000:015.094   Looking for J-Link GUI Server exe at: C:\Users\qq292\.eclipse\com.renesas.platform_275973119\DebugComp\RA\ARM\Segger_v9.14.1\JLinkGUIServer.exe
T3F74 000:015.225   Looking for J-Link GUI Server exe at: D:\Single-chip\STLINK\JLink\JLink_V796\JLinkGUIServer.exe
T3F74 000:015.235   Forking J-Link GUI Server: D:\Single-chip\STLINK\JLink\JLink_V796\JLinkGUIServer.exe
T3F74 000:037.552   J-Link GUI Server info: "J-Link GUI server V7.96 "
T3F74 000:038.113 - 34.949ms returns "O.K."
T3F74 000:038.194 JLINK_TIF_Select(JLINKARM_TIF_SWD)
T3F74 000:039.455 - 1.261ms returns 0x00
T3F74 000:039.471 JLINK_ClrRESET()
T3F74 000:040.066 - 0.595ms 
T3F74 000:090.672 JLINK_SetSpeed(1500)
T3F74 000:090.968 - 0.300ms 
T3F74 000:090.987 JLINK_CORESIGHT_Configure(PerformTIFInit=0)
T3F74 000:091.396 - 0.412ms returns 0
T3F74 000:091.406 JLINK_CORESIGHT_ReadAPDPReg(DP reg 0x00)
T3F74 000:091.928   Value=0x6BA02477
T3F74 000:091.937 - 0.532ms returns 0
T3F74 000:091.945 JLINK_CORESIGHT_WriteAPDPReg(DP reg 0x00, 0x0000001F)
T3F74 000:092.254 - 0.309ms returns 0
T3F74 000:092.264 JLINK_CORESIGHT_ReadAPDPReg(DP reg 0x00)
T3F74 000:092.625   Value=0x6BA02477
T3F74 000:092.631 - 0.367ms returns 0
T3F74 000:092.636 JLINK_CORESIGHT_WriteAPDPReg(DP reg 0x02, 0x00000000)
T3F74 000:092.954 - 0.317ms returns 0
T3F74 000:092.960 JLINK_CORESIGHT_WriteAPDPReg(DP reg 0x01, 0x50000000)
T3F74 000:093.276 - 0.316ms returns 0
T3F74 000:093.283 JLINK_CORESIGHT_ReadAPDPReg(DP reg 0x01)
T3F74 000:093.620   Value=0xF0000040
T3F74 000:093.627 - 0.343ms returns 0
T3F74 000:093.632 JLINK_CORESIGHT_WriteAPDPReg(DP reg 0x00, 0x0000001F)
T3F74 000:093.957 - 0.325ms returns 0
T3F74 000:093.962 JLINK_CORESIGHT_ReadAPDPReg(DP reg 0x00)
T3F74 000:094.270   Value=0x6BA02477
T3F74 000:094.276 - 0.313ms returns 0
T3F74 000:094.280 JLINK_CORESIGHT_WriteAPDPReg(DP reg 0x01, 0x54000000)
T3F74 000:094.606 - 0.325ms returns 0
T3F74 000:094.612 JLINK_CORESIGHT_WriteAPDPReg(DP reg 0x01, 0x50000F00)
T3F74 000:094.930 - 0.317ms returns 0
T3F74 000:094.935 JLINK_CORESIGHT_WriteAPDPReg(DP reg 0x02, 0x01000000)
T3F74 000:095.258 - 0.323ms returns 0
T3F74 000:095.264 JLINK_CORESIGHT_WriteAPDPReg(AP reg 0x00, 0x80000002)
T3F74 000:095.612 - 0.349ms returns 0
T3F74 000:095.619 JLINK_CORESIGHT_WriteAPDPReg(AP reg 0x01, 0x80011100)
T3F74 000:095.931 - 0.311ms returns 0
T3F74 000:095.937 JLINK_CORESIGHT_WriteAPDPReg(AP reg 0x03, 0x000000A5)
T3F74 000:096.258 - 0.321ms returns 0
T3F74 000:096.264 JLINK_CORESIGHT_WriteAPDPReg(AP reg 0x00, 0x80000002)
T3F74 000:096.561 - 0.297ms returns 0
T3F74 000:096.571 JLINK_CORESIGHT_WriteAPDPReg(AP reg 0x01, 0x80011100)
T3F74 000:096.879 - 0.308ms returns 0
T3F74 000:096.889 JLINK_CORESIGHT_ReadAPDPReg(AP reg 0x03)
T3F74 000:097.258   Value=0x000000A5
T3F74 000:097.265 - 0.375ms returns 0
T3F74 000:097.270 JLINK_ClrTMS()
T3F74 000:097.552 - 0.281ms 
T3F74 000:103.321 JLINK_SetTCK()
T3F74 000:103.632 - 0.310ms returns 0
T3F74 000:109.057 JLINK_SetRESET()
T3F74 000:109.364 - 0.307ms 
T3F74 000:309.538 JLINK_CORESIGHT_WriteAPDPReg(AP reg 0x00, 0x80000002)
T3F74 000:309.935 - 0.396ms returns 0
T3F74 000:309.948 JLINK_CORESIGHT_WriteAPDPReg(AP reg 0x01, 0x80011100)
T3F74 000:310.306 - 0.357ms returns 0
T3F74 000:310.318 JLINK_CORESIGHT_ReadAPDPReg(AP reg 0x03)
T3F74 000:310.658   Value=0x00000000
T3F74 000:310.665 - 0.346ms returns 0
T3F74 000:310.671 JLINK_CORESIGHT_WriteAPDPReg(AP reg 0x00, 0x80000002)
T3F74 000:310.990 - 0.318ms returns 0
T3F74 000:310.995 JLINK_CORESIGHT_WriteAPDPReg(AP reg 0x01, 0x80011140)
T3F74 000:311.432 - 0.436ms returns 0
T3F74 000:311.442 JLINK_CORESIGHT_ReadAPDPReg(AP reg 0x03)
T3F74 000:311.800   Value=0x00000002
T3F74 000:311.810 - 0.368ms returns 0
T3F74 000:311.817 JLINK_CORESIGHT_WriteAPDPReg(AP reg 0x00, 0x80000002)
T3F74 000:312.604 - 0.786ms returns 0
T3F74 000:312.616 JLINK_CORESIGHT_WriteAPDPReg(AP reg 0x01, 0x80011120)
T3F74 000:312.963 - 0.346ms returns 0
T3F74 000:312.976 JLINK_CORESIGHT_WriteAPDPReg(AP reg 0x03, 0x00000055)
T3F74 000:313.380 - 0.404ms returns 0
T3F74 000:313.392 JLINK_CORESIGHT_WriteAPDPReg(AP reg 0x00, 0x80000002)
T3F74 000:313.707 - 0.314ms returns 0
T3F74 000:313.720 JLINK_CORESIGHT_WriteAPDPReg(AP reg 0x01, 0x80011140)
T3F74 000:314.004 - 0.284ms returns 0
T3F74 000:314.011 JLINK_CORESIGHT_ReadAPDPReg(AP reg 0x03)
T3F74 000:314.387   Value=0x00000002
T3F74 000:314.393 - 0.381ms returns 0
T3F74 000:314.398 JLINK_CORESIGHT_ReadAPDPReg(AP reg 0x03)
T3F74 000:314.741   Value=0x00000002
T3F74 000:314.746 - 0.348ms returns 0
T3F74 000:314.751 JLINK_CORESIGHT_ReadAPDPReg(AP reg 0x03)
T3F74 000:315.129   Value=0x00000002
T3F74 000:315.134 - 0.383ms returns 0
T3F74 000:315.139 JLINK_CORESIGHT_ReadAPDPReg(AP reg 0x03)
T3F74 000:315.514   Value=0x00000002
T3F74 000:315.527 - 0.387ms returns 0
T3F74 000:315.533 JLINK_CORESIGHT_ReadAPDPReg(AP reg 0x03)
T3F74 000:315.883   Value=0x00000002
T3F74 000:315.894 - 0.360ms returns 0
T3F74 000:315.900 JLINK_CORESIGHT_ReadAPDPReg(AP reg 0x03)
T3F74 000:316.249   Value=0x00000002
T3F74 000:316.254 - 0.353ms returns 0
T3F74 000:316.259 JLINK_CORESIGHT_ReadAPDPReg(AP reg 0x03)
T3F74 000:316.669   Value=0x00000002
T3F74 000:316.675 - 0.416ms returns 0
T3F74 000:316.680 JLINK_CORESIGHT_ReadAPDPReg(AP reg 0x03)
T3F74 000:317.068   Value=0x00000002
T3F74 000:317.084 - 0.403ms returns 0
T3F74 000:317.095 JLINK_CORESIGHT_ReadAPDPReg(AP reg 0x03)
T3F74 000:317.459   Value=0x00000002
T3F74 000:317.470 - 0.374ms returns 0
T3F74 000:317.476 JLINK_CORESIGHT_ReadAPDPReg(AP reg 0x03)
T3F74 000:317.831   Value=0x00000002
T3F74 000:317.836 - 0.360ms returns 0
T3F74 000:317.841 JLINK_CORESIGHT_ReadAPDPReg(AP reg 0x03)
T3F74 000:318.154   Value=0x00000002
T3F74 000:318.160 - 0.318ms returns 0
T3F74 000:318.165 JLINK_CORESIGHT_ReadAPDPReg(AP reg 0x03)
T3F74 000:318.550   Value=0x00000002
T3F74 000:318.556 - 0.391ms returns 0
T3F74 000:318.688 JLINK_CORESIGHT_ReadAPDPReg(AP reg 0x03)
T3F74 000:319.504   Value=0x00000002
T3F74 000:319.517 - 0.829ms returns 0
T3F74 000:319.524 JLINK_CORESIGHT_ReadAPDPReg(AP reg 0x03)
T3F74 000:319.923   Value=0x00000002
T3F74 000:319.935 - 0.411ms returns 0
T3F74 000:319.942 JLINK_CORESIGHT_ReadAPDPReg(AP reg 0x03)
T3F74 000:320.295   Value=0x00000002
T3F74 000:320.301 - 0.359ms returns 0
T3F74 000:320.306 JLINK_CORESIGHT_ReadAPDPReg(AP reg 0x03)
T3F74 000:320.737   Value=0x00000002
T3F74 000:320.749 - 0.442ms returns 0
T3F74 000:320.755 JLINK_CORESIGHT_ReadAPDPReg(AP reg 0x03)
T3F74 000:321.133   Value=0x00000002
T3F74 000:321.141 - 0.385ms returns 0
T3F74 000:321.146 JLINK_CORESIGHT_ReadAPDPReg(AP reg 0x03)
T3F74 000:321.493   Value=0x00000002
T3F74 000:321.504 - 0.357ms returns 0
T3F74 000:321.510 JLINK_CORESIGHT_ReadAPDPReg(AP reg 0x03)
T3F74 000:321.865   Value=0x00000002
T3F74 000:321.874 - 0.364ms returns 0
T3F74 000:321.880 JLINK_CORESIGHT_ReadAPDPReg(AP reg 0x03)
T3F74 000:322.286   Value=0x00000002
T3F74 000:322.307 - 0.427ms returns 0
T3F74 000:322.313 JLINK_CORESIGHT_ReadAPDPReg(AP reg 0x03)
T3F74 000:322.714   Value=0x00000002
T3F74 000:322.725 - 0.412ms returns 0
T3F74 000:322.732 JLINK_CORESIGHT_ReadAPDPReg(AP reg 0x03)
T3F74 000:323.112   Value=0x00000002
T3F74 000:323.118 - 0.386ms returns 0
T3F74 000:323.122 JLINK_CORESIGHT_ReadAPDPReg(AP reg 0x03)
T3F74 000:323.502   Value=0x00000002
T3F74 000:323.508 - 0.385ms returns 0
T3F74 000:323.513 JLINK_CORESIGHT_ReadAPDPReg(AP reg 0x03)
T3F74 000:323.878   Value=0x00000002
T3F74 000:323.896 - 0.382ms returns 0
T3F74 000:323.921 JLINK_CORESIGHT_ReadAPDPReg(AP reg 0x03)
T3F74 000:324.315   Value=0x00000002
T3F74 000:324.324 - 0.403ms returns 0
T3F74 000:324.330 JLINK_CORESIGHT_ReadAPDPReg(AP reg 0x03)
T3F74 000:324.714   Value=0x00000002
T3F74 000:324.719 - 0.389ms returns 0
T3F74 000:324.724 JLINK_CORESIGHT_ReadAPDPReg(AP reg 0x03)
T3F74 000:325.113   Value=0x00000000
T3F74 000:325.121 - 0.396ms returns 0
T3F74 000:325.127 JLINK_CORESIGHT_WriteAPDPReg(AP reg 0x00, 0x80000002)
T3F74 000:325.487 - 0.359ms returns 0
T3F74 000:325.497 JLINK_CORESIGHT_WriteAPDPReg(AP reg 0x01, 0x80011130)
T3F74 000:326.500 - 1.002ms returns 0
T3F74 000:326.512 JLINK_CORESIGHT_ReadAPDPReg(AP reg 0x03)
T3F74 000:326.911   Value=0x000000C6
T3F74 000:326.921 - 0.408ms returns 0
T3F74 000:326.937 JLINK_CORESIGHT_WriteAPDPReg(AP reg 0x00, 0x80000002)
T3F74 000:327.301 - 0.363ms returns 0
T3F74 000:327.314 JLINK_CORESIGHT_WriteAPDPReg(AP reg 0x01, 0x80011140)
T3F74 000:327.646 - 0.332ms returns 0
T3F74 000:327.655 JLINK_CORESIGHT_ReadAPDPReg(AP reg 0x03)
T3F74 000:328.055   Value=0x00000002
T3F74 000:328.066 - 0.410ms returns 0
T3F74 000:328.072 JLINK_CORESIGHT_WriteAPDPReg(AP reg 0x00, 0x80000002)
T3F74 000:328.394 - 0.321ms returns 0
T3F74 000:328.400 JLINK_CORESIGHT_WriteAPDPReg(AP reg 0x01, 0x80011120)
T3F74 000:328.712 - 0.311ms returns 0
T3F74 000:328.718 JLINK_CORESIGHT_WriteAPDPReg(AP reg 0x03, 0x3A010001)
T3F74 000:329.065 - 0.347ms returns 0
T3F74 000:329.071 JLINK_CORESIGHT_WriteAPDPReg(AP reg 0x00, 0x80000002)
T3F74 000:329.357 - 0.286ms returns 0
T3F74 000:329.363 JLINK_CORESIGHT_WriteAPDPReg(AP reg 0x01, 0x80011140)
T3F74 000:329.708 - 0.345ms returns 0
T3F74 000:329.714 JLINK_CORESIGHT_ReadAPDPReg(AP reg 0x03)
T3F74 000:330.142   Value=0x00000002
T3F74 000:330.150 - 0.436ms returns 0
T3F74 000:330.157 JLINK_CORESIGHT_WriteAPDPReg(AP reg 0x00, 0x80000002)
T3F74 000:330.490 - 0.333ms returns 0
T3F74 000:330.501 JLINK_CORESIGHT_WriteAPDPReg(AP reg 0x01, 0x80011120)
T3F74 000:330.837 - 0.336ms returns 0
T3F74 000:330.843 JLINK_CORESIGHT_WriteAPDPReg(AP reg 0x03, 0x000003C5)
T3F74 000:331.171 - 0.327ms returns 0
T3F74 000:331.177 JLINK_CORESIGHT_WriteAPDPReg(AP reg 0x00, 0x80000002)
T3F74 000:331.544 - 0.367ms returns 0
T3F74 000:331.553 JLINK_CORESIGHT_WriteAPDPReg(AP reg 0x01, 0x80011140)
T3F74 000:331.881 - 0.328ms returns 0
T3F74 000:331.892 JLINK_CORESIGHT_ReadAPDPReg(AP reg 0x03)
T3F74 000:332.261   Value=0x00000002
T3F74 000:332.268 - 0.376ms returns 0
T3F74 000:332.274 JLINK_CORESIGHT_ReadAPDPReg(AP reg 0x03)
T3F74 000:332.626   Value=0x00000002
T3F74 000:332.634 - 0.360ms returns 0
T3F74 000:332.640 JLINK_CORESIGHT_ReadAPDPReg(AP reg 0x03)
T3F74 000:333.388   Value=0x00000002
T3F74 000:333.400 - 0.759ms returns 0
T3F74 000:333.407 JLINK_CORESIGHT_ReadAPDPReg(AP reg 0x03)
T3F74 000:333.807   Value=0x00000002
T3F74 000:333.817 - 0.409ms returns 0
T3F74 000:333.823 JLINK_CORESIGHT_ReadAPDPReg(AP reg 0x03)
T3F74 000:334.213   Value=0x00000002
T3F74 000:334.218 - 0.395ms returns 0
T3F74 000:334.223 JLINK_CORESIGHT_ReadAPDPReg(AP reg 0x03)
T3F74 000:334.604   Value=0x00000002
T3F74 000:334.611 - 0.387ms returns 0
T3F74 000:334.616 JLINK_CORESIGHT_ReadAPDPReg(AP reg 0x03)
T3F74 000:334.964   Value=0x00000002
T3F74 000:334.976 - 0.360ms returns 0
T3F74 000:334.983 JLINK_CORESIGHT_ReadAPDPReg(AP reg 0x03)
T3F74 000:335.307   Value=0x00000000
T3F74 000:335.313 - 0.330ms returns 0
T3F74 000:335.319 JLINK_CORESIGHT_WriteAPDPReg(AP reg 0x00, 0x80000002)
T3F74 000:335.665 - 0.346ms returns 0
T3F74 000:335.671 JLINK_CORESIGHT_WriteAPDPReg(AP reg 0x01, 0x80011130)
T3F74 000:336.088 - 0.416ms returns 0
T3F74 000:336.096 JLINK_CORESIGHT_ReadAPDPReg(AP reg 0x03)
T3F74 000:336.505   Value=0x3A2A0081
T3F74 000:336.514 - 0.417ms returns 0
T3F74 000:336.520 JLINK_CORESIGHT_WriteAPDPReg(AP reg 0x00, 0x80000002)
T3F74 000:336.847 - 0.326ms returns 0
T3F74 000:336.860 JLINK_CORESIGHT_WriteAPDPReg(AP reg 0x01, 0x80011140)
T3F74 000:337.209 - 0.348ms returns 0
T3F74 000:337.216 JLINK_CORESIGHT_ReadAPDPReg(AP reg 0x03)
T3F74 000:337.584   Value=0x00000000
T3F74 000:337.596 - 0.380ms returns 0
T3F74 000:337.603 JLINK_CORESIGHT_WriteAPDPReg(AP reg 0x00, 0x80000002)
T3F74 000:337.956 - 0.353ms returns 0
T3F74 000:337.966 JLINK_CORESIGHT_WriteAPDPReg(AP reg 0x01, 0x80011130)
T3F74 000:338.366 - 0.400ms returns 0
T3F74 000:338.375 JLINK_CORESIGHT_ReadAPDPReg(AP reg 0x03)
T3F74 000:338.735   Value=0x808D5B00
T3F74 000:338.744 - 0.369ms returns 0
T3F74 000:338.751 JLINK_CORESIGHT_WriteAPDPReg(AP reg 0x00, 0x80000002)
T3F74 000:339.080 - 0.329ms returns 0
T3F74 000:339.085 JLINK_CORESIGHT_WriteAPDPReg(AP reg 0x01, 0x80011140)
T3F74 000:339.407 - 0.321ms returns 0
T3F74 000:339.413 JLINK_CORESIGHT_ReadAPDPReg(AP reg 0x03)
T3F74 000:340.330   Value=0x00000000
T3F74 000:340.342 - 0.928ms returns 0
T3F74 000:340.348 JLINK_CORESIGHT_WriteAPDPReg(AP reg 0x00, 0x80000002)
T3F74 000:340.680 - 0.332ms returns 0
T3F74 000:340.693 JLINK_CORESIGHT_WriteAPDPReg(AP reg 0x01, 0x80011130)
T3F74 000:341.039 - 0.346ms returns 0
T3F74 000:341.060 JLINK_CORESIGHT_ReadAPDPReg(AP reg 0x03)
T3F74 000:341.502   Value=0x0406070A
T3F74 000:341.512 - 0.452ms returns 0
T3F74 000:341.518 JLINK_CORESIGHT_WriteAPDPReg(AP reg 0x00, 0x80000002)
T3F74 000:341.892 - 0.374ms returns 0
T3F74 000:341.904 JLINK_CORESIGHT_WriteAPDPReg(AP reg 0x01, 0x80011140)
T3F74 000:342.267 - 0.363ms returns 0
T3F74 000:342.275 JLINK_CORESIGHT_ReadAPDPReg(AP reg 0x03)
T3F74 000:342.623   Value=0x00000000
T3F74 000:342.629 - 0.354ms returns 0
T3F74 000:342.634 JLINK_CORESIGHT_WriteAPDPReg(AP reg 0x00, 0x80000002)
T3F74 000:342.995 - 0.360ms returns 0
T3F74 000:343.004 JLINK_CORESIGHT_WriteAPDPReg(AP reg 0x01, 0x80011130)
T3F74 000:343.336 - 0.332ms returns 0
T3F74 000:343.348 JLINK_CORESIGHT_ReadAPDPReg(AP reg 0x03)
T3F74 000:343.794   Value=0x3254540B
T3F74 000:343.803 - 0.455ms returns 0
T3F74 000:343.815 JLINK_CORESIGHT_WriteAPDPReg(AP reg 0x00, 0x80000002)
T3F74 000:344.131 - 0.315ms returns 0
T3F74 000:344.152 JLINK_CORESIGHT_WriteAPDPReg(AP reg 0x01, 0x80011140)
T3F74 000:344.461 - 0.309ms returns 0
T3F74 000:344.501 JLINK_CORESIGHT_ReadAPDPReg(AP reg 0x03)
T3F74 000:344.982   Value=0x00000000
T3F74 000:344.988 - 0.487ms returns 0
T3F74 000:344.994 JLINK_CORESIGHT_WriteAPDPReg(AP reg 0x00, 0x80000002)
T3F74 000:345.308 - 0.313ms returns 0
T3F74 000:345.318 JLINK_CORESIGHT_WriteAPDPReg(AP reg 0x01, 0x80011130)
T3F74 000:345.724 - 0.405ms returns 0
T3F74 000:345.736 JLINK_CORESIGHT_ReadAPDPReg(AP reg 0x03)
T3F74 000:346.162   Value=0x54508A59
T3F74 000:346.173 - 0.437ms returns 0
T3F74 000:346.179 JLINK_CORESIGHT_WriteAPDPReg(AP reg 0x00, 0x80000002)
T3F74 000:346.678 - 0.498ms returns 0
T3F74 000:346.716 JLINK_CORESIGHT_WriteAPDPReg(AP reg 0x01, 0x80011140)
T3F74 000:347.058 - 0.341ms returns 0
T3F74 000:347.068 JLINK_CORESIGHT_ReadAPDPReg(AP reg 0x03)
T3F74 000:347.405   Value=0x00000000
T3F74 000:347.411 - 0.343ms returns 0
T3F74 000:347.417 JLINK_CORESIGHT_WriteAPDPReg(AP reg 0x00, 0x80000002)
T3F74 000:347.783 - 0.366ms returns 0
T3F74 000:347.790 JLINK_CORESIGHT_WriteAPDPReg(AP reg 0x01, 0x80011130)
T3F74 000:348.132 - 0.342ms returns 0
T3F74 000:348.140 JLINK_CORESIGHT_ReadAPDPReg(AP reg 0x03)
T3F74 000:348.496   Value=0x34325736
T3F74 000:348.508 - 0.368ms returns 0
T3F74 000:348.514 JLINK_CORESIGHT_WriteAPDPReg(AP reg 0x00, 0x80000002)
T3F74 000:348.859 - 0.345ms returns 0
T3F74 000:348.871 JLINK_CORESIGHT_WriteAPDPReg(AP reg 0x01, 0x80011140)
T3F74 000:349.255 - 0.384ms returns 0
T3F74 000:349.268 JLINK_CORESIGHT_ReadAPDPReg(AP reg 0x03)
T3F74 000:349.620   Value=0x00000000
T3F74 000:349.627 - 0.358ms returns 0
T3F74 000:349.632 JLINK_CORESIGHT_WriteAPDPReg(AP reg 0x00, 0x80000002)
T3F74 000:349.936 - 0.303ms returns 0
T3F74 000:349.947 JLINK_CORESIGHT_WriteAPDPReg(AP reg 0x01, 0x80011130)
T3F74 000:350.262 - 0.315ms returns 0
T3F74 000:350.270 JLINK_CORESIGHT_ReadAPDPReg(AP reg 0x03)
T3F74 000:350.624   Value=0x76082D30
T3F74 000:350.635 - 0.365ms returns 0
T3F74 000:350.641 JLINK_CORESIGHT_WriteAPDPReg(AP reg 0x00, 0x80000002)
T3F74 000:351.069 - 0.427ms returns 0
T3F74 000:351.083 JLINK_CORESIGHT_WriteAPDPReg(AP reg 0x01, 0x80011140)
T3F74 000:351.451 - 0.368ms returns 0
T3F74 000:351.464 JLINK_CORESIGHT_ReadAPDPReg(AP reg 0x03)
T3F74 000:351.871   Value=0x00000000
T3F74 000:351.880 - 0.416ms returns 0
T3F74 000:351.887 JLINK_CORESIGHT_WriteAPDPReg(AP reg 0x00, 0x80000002)
T3F74 000:352.316 - 0.429ms returns 0
T3F74 000:352.329 JLINK_CORESIGHT_WriteAPDPReg(AP reg 0x01, 0x80011130)
T3F74 000:352.673 - 0.344ms returns 0
T3F74 000:352.685 JLINK_CORESIGHT_ReadAPDPReg(AP reg 0x03)
T3F74 000:353.089   Value=0x4B375266
T3F74 000:353.101 - 0.416ms returns 0
T3F74 000:353.107 JLINK_CORESIGHT_WriteAPDPReg(AP reg 0x00, 0x80000002)
T3F74 000:353.520 - 0.413ms returns 0
T3F74 000:353.531 JLINK_CORESIGHT_WriteAPDPReg(AP reg 0x01, 0x80011140)
T3F74 000:353.960 - 0.428ms returns 0
T3F74 000:353.971 JLINK_CORESIGHT_ReadAPDPReg(AP reg 0x03)
T3F74 000:354.341   Value=0x00000000
T3F74 000:354.353 - 0.382ms returns 0
T3F74 000:354.360 JLINK_CORESIGHT_WriteAPDPReg(AP reg 0x00, 0x80000002)
T3F74 000:354.715 - 0.355ms returns 0
T3F74 000:354.725 JLINK_CORESIGHT_WriteAPDPReg(AP reg 0x01, 0x80011130)
T3F74 000:355.050 - 0.325ms returns 0
T3F74 000:355.058 JLINK_CORESIGHT_ReadAPDPReg(AP reg 0x03)
T3F74 000:355.463   Value=0x31503841
T3F74 000:355.477 - 0.419ms returns 0
T3F74 000:355.483 JLINK_CORESIGHT_WriteAPDPReg(AP reg 0x00, 0x80000002)
T3F74 000:355.824 - 0.340ms returns 0
T3F74 000:355.834 JLINK_CORESIGHT_WriteAPDPReg(AP reg 0x01, 0x80011140)
T3F74 000:356.217 - 0.383ms returns 0
T3F74 000:356.223 JLINK_CORESIGHT_ReadAPDPReg(AP reg 0x03)
T3F74 000:356.622   Value=0x00000000
T3F74 000:356.657 - 0.434ms returns 0
T3F74 000:356.664 JLINK_CORESIGHT_WriteAPDPReg(AP reg 0x00, 0x80000002)
T3F74 000:356.995 - 0.330ms returns 0
T3F74 000:357.042 JLINK_CORESIGHT_WriteAPDPReg(AP reg 0x01, 0x80011130)
T3F74 000:357.353 - 0.313ms returns 0
T3F74 000:357.365 JLINK_CORESIGHT_ReadAPDPReg(AP reg 0x03)
T3F74 000:357.759   Value=0x434C464B
T3F74 000:357.765 - 0.400ms returns 0
T3F74 000:357.770 JLINK_CORESIGHT_WriteAPDPReg(AP reg 0x00, 0x80000002)
T3F74 000:358.116 - 0.345ms returns 0
T3F74 000:358.128 JLINK_CORESIGHT_WriteAPDPReg(AP reg 0x01, 0x80011140)
T3F74 000:358.523 - 0.395ms returns 0
T3F74 000:358.535 JLINK_CORESIGHT_ReadAPDPReg(AP reg 0x03)
T3F74 000:358.930   Value=0x00000000
T3F74 000:358.939 - 0.404ms returns 0
T3F74 000:358.946 JLINK_CORESIGHT_WriteAPDPReg(AP reg 0x00, 0x80000002)
T3F74 000:359.250 - 0.304ms returns 0
T3F74 000:359.256 JLINK_CORESIGHT_WriteAPDPReg(AP reg 0x01, 0x80011130)
T3F74 000:359.584 - 0.328ms returns 0
T3F74 000:359.594 JLINK_CORESIGHT_ReadAPDPReg(AP reg 0x03)
T3F74 000:360.013   Value=0x20204341
T3F74 000:360.022 - 0.428ms returns 0
T3F74 000:360.028 JLINK_CORESIGHT_WriteAPDPReg(AP reg 0x00, 0x80000002)
T3F74 000:360.366 - 0.337ms returns 0
T3F74 000:360.373 JLINK_CORESIGHT_WriteAPDPReg(AP reg 0x01, 0x80011140)
T3F74 000:360.685 - 0.311ms returns 0
T3F74 000:360.697 JLINK_CORESIGHT_ReadAPDPReg(AP reg 0x03)
T3F74 000:361.136   Value=0x00000000
T3F74 000:361.148 - 0.451ms returns 0
T3F74 000:361.155 JLINK_CORESIGHT_WriteAPDPReg(AP reg 0x00, 0x80000002)
T3F74 000:361.530 - 0.375ms returns 0
T3F74 000:361.543 JLINK_CORESIGHT_WriteAPDPReg(AP reg 0x01, 0x80011130)
T3F74 000:361.879 - 0.336ms returns 0
T3F74 000:361.886 JLINK_CORESIGHT_ReadAPDPReg(AP reg 0x03)
T3F74 000:362.282   Value=0x0003A720
T3F74 000:362.293 - 0.407ms returns 0
T3F74 000:362.356 JLINK_CORESIGHT_WriteAPDPReg(AP reg 0x00, 0x80000002)
T3F74 000:362.715 - 0.359ms returns 0
T3F74 000:362.727 JLINK_CORESIGHT_WriteAPDPReg(AP reg 0x01, 0x80011140)
T3F74 000:363.087 - 0.360ms returns 0
T3F74 000:363.094 JLINK_CORESIGHT_ReadAPDPReg(AP reg 0x03)
T3F74 000:363.533   Value=0x00000002
T3F74 000:363.549 - 0.455ms returns 0
T3F74 000:363.554 JLINK_CORESIGHT_WriteAPDPReg(AP reg 0x00, 0x80000002)
T3F74 000:363.910 - 0.355ms returns 0
T3F74 000:363.917 JLINK_CORESIGHT_WriteAPDPReg(AP reg 0x01, 0x80011120)
T3F74 000:364.260 - 0.342ms returns 0
T3F74 000:364.275 JLINK_CORESIGHT_WriteAPDPReg(AP reg 0x03, 0x39020001)
T3F74 000:364.618 - 0.343ms returns 0
T3F74 000:364.631 JLINK_CORESIGHT_WriteAPDPReg(AP reg 0x00, 0x80000002)
T3F74 000:364.959 - 0.327ms returns 0
T3F74 000:364.968 JLINK_CORESIGHT_WriteAPDPReg(AP reg 0x01, 0x80011140)
T3F74 000:365.388 - 0.419ms returns 0
T3F74 000:365.400 JLINK_CORESIGHT_ReadAPDPReg(AP reg 0x03)
T3F74 000:365.801   Value=0x00000002
T3F74 000:365.810 - 0.410ms returns 0
T3F74 000:365.817 JLINK_CORESIGHT_WriteAPDPReg(AP reg 0x00, 0x80000002)
T3F74 000:366.130 - 0.313ms returns 0
T3F74 000:366.136 JLINK_CORESIGHT_WriteAPDPReg(AP reg 0x01, 0x80011120)
T3F74 000:366.431 - 0.294ms returns 0
T3F74 000:366.437 JLINK_CORESIGHT_WriteAPDPReg(AP reg 0x03, 0x0003B312)
T3F74 000:366.765 - 0.328ms returns 0
T3F74 000:366.777 JLINK_CORESIGHT_WriteAPDPReg(AP reg 0x00, 0x80000002)
T3F74 000:367.109 - 0.332ms returns 0
T3F74 000:367.119 JLINK_CORESIGHT_WriteAPDPReg(AP reg 0x01, 0x80011140)
T3F74 000:367.518 - 0.398ms returns 0
T3F74 000:367.530 JLINK_CORESIGHT_ReadAPDPReg(AP reg 0x03)
T3F74 000:367.907   Value=0x00000000
T3F74 000:367.919 - 0.388ms returns 0
T3F74 000:367.926 JLINK_CORESIGHT_WriteAPDPReg(AP reg 0x00, 0x80000002)
T3F74 000:368.369 - 0.442ms returns 0
T3F74 000:368.382 JLINK_CORESIGHT_WriteAPDPReg(AP reg 0x01, 0x80011130)
T3F74 000:368.714 - 0.331ms returns 0
T3F74 000:368.723 JLINK_CORESIGHT_ReadAPDPReg(AP reg 0x03)
T3F74 000:369.169   Value=0xB90A0081
T3F74 000:369.180 - 0.456ms returns 0
T3F74 000:369.186 JLINK_CORESIGHT_WriteAPDPReg(AP reg 0x00, 0x80000002)
T3F74 000:369.516 - 0.330ms returns 0
T3F74 000:369.524 JLINK_CORESIGHT_WriteAPDPReg(AP reg 0x01, 0x80011140)
T3F74 000:369.841 - 0.317ms returns 0
T3F74 000:369.858 JLINK_CORESIGHT_ReadAPDPReg(AP reg 0x03)
T3F74 000:370.211   Value=0x00000000
T3F74 000:370.218 - 0.360ms returns 0
T3F74 000:370.228 JLINK_CORESIGHT_WriteAPDPReg(AP reg 0x00, 0x80000002)
T3F74 000:370.560 - 0.332ms returns 0
T3F74 000:370.573 JLINK_CORESIGHT_WriteAPDPReg(AP reg 0x01, 0x80011130)
T3F74 000:370.951 - 0.377ms returns 0
T3F74 000:370.974 JLINK_CORESIGHT_ReadAPDPReg(AP reg 0x03)
T3F74 000:371.382   Value=0xFFFFFFC0
T3F74 000:371.394 - 0.420ms returns 0
T3F74 000:371.404 JLINK_CORESIGHT_WriteAPDPReg(AP reg 0x00, 0x80000002)
T3F74 000:371.754 - 0.350ms returns 0
T3F74 000:371.764 JLINK_CORESIGHT_WriteAPDPReg(AP reg 0x01, 0x80011140)
T3F74 000:372.135 - 0.371ms returns 0
T3F74 000:372.152 JLINK_CORESIGHT_ReadAPDPReg(AP reg 0x03)
T3F74 000:372.558   Value=0x00000000
T3F74 000:372.568 - 0.415ms returns 0
T3F74 000:372.578 JLINK_CORESIGHT_WriteAPDPReg(AP reg 0x00, 0x80000002)
T3F74 000:372.882 - 0.304ms returns 0
T3F74 000:372.890 JLINK_CORESIGHT_WriteAPDPReg(AP reg 0x01, 0x80011130)
T3F74 000:373.211 - 0.320ms returns 0
T3F74 000:373.223 JLINK_CORESIGHT_ReadAPDPReg(AP reg 0x03)
T3F74 000:373.617   Value=0xFFFFFFFF
T3F74 000:373.627 - 0.403ms returns 0
T3F74 000:373.636 JLINK_CORESIGHT_WriteAPDPReg(AP reg 0x00, 0x80000002)
T3F74 000:374.020 - 0.383ms returns 0
T3F74 000:374.042 JLINK_CORESIGHT_WriteAPDPReg(AP reg 0x01, 0x80011140)
T3F74 000:374.467 - 0.424ms returns 0
T3F74 000:374.484 JLINK_CORESIGHT_ReadAPDPReg(AP reg 0x03)
T3F74 000:374.908   Value=0x00000000
T3F74 000:374.921 - 0.436ms returns 0
T3F74 000:375.003 JLINK_CORESIGHT_WriteAPDPReg(AP reg 0x00, 0x80000002)
T3F74 000:375.415 - 0.412ms returns 0
T3F74 000:375.429 JLINK_CORESIGHT_WriteAPDPReg(AP reg 0x01, 0x80011130)
T3F74 000:375.794 - 0.365ms returns 0
T3F74 000:375.811 JLINK_CORESIGHT_ReadAPDPReg(AP reg 0x03)
T3F74 000:376.185   Value=0x000385FF
T3F74 000:376.197 - 0.386ms returns 0
T3F74 000:376.257 JLINK_CORESIGHT_WriteAPDPReg(AP reg 0x00, 0x80000002)
T3F74 000:376.633 - 0.376ms returns 0
T3F74 000:376.643 JLINK_CORESIGHT_WriteAPDPReg(AP reg 0x01, 0x80011140)
T3F74 000:376.956 - 0.313ms returns 0
T3F74 000:376.963 JLINK_CORESIGHT_ReadAPDPReg(AP reg 0x03)
T3F74 000:377.341   Value=0x00000002
T3F74 000:377.355 - 0.392ms returns 0
T3F74 000:377.361 JLINK_CORESIGHT_WriteAPDPReg(AP reg 0x00, 0x80000002)
T3F74 000:377.757 - 0.395ms returns 0
T3F74 000:377.767 JLINK_CORESIGHT_WriteAPDPReg(AP reg 0x01, 0x80011120)
T3F74 000:378.161 - 0.394ms returns 0
T3F74 000:378.170 JLINK_CORESIGHT_WriteAPDPReg(AP reg 0x03, 0x2C010001)
T3F74 000:378.531 - 0.361ms returns 0
T3F74 000:378.539 JLINK_CORESIGHT_WriteAPDPReg(AP reg 0x00, 0x80000002)
T3F74 000:378.840 - 0.300ms returns 0
T3F74 000:378.846 JLINK_CORESIGHT_WriteAPDPReg(AP reg 0x01, 0x80011140)
T3F74 000:379.163 - 0.316ms returns 0
T3F74 000:379.176 JLINK_CORESIGHT_ReadAPDPReg(AP reg 0x03)
T3F74 000:379.552   Value=0x00000002
T3F74 000:379.561 - 0.384ms returns 0
T3F74 000:379.567 JLINK_CORESIGHT_WriteAPDPReg(AP reg 0x00, 0x80000002)
T3F74 000:379.883 - 0.315ms returns 0
T3F74 000:379.889 JLINK_CORESIGHT_WriteAPDPReg(AP reg 0x01, 0x80011120)
T3F74 000:380.326 - 0.436ms returns 0
T3F74 000:380.338 JLINK_CORESIGHT_WriteAPDPReg(AP reg 0x03, 0x000003D3)
T3F74 000:380.681 - 0.343ms returns 0
T3F74 000:380.689 JLINK_CORESIGHT_WriteAPDPReg(AP reg 0x00, 0x80000002)
T3F74 000:381.018 - 0.329ms returns 0
T3F74 000:381.025 JLINK_CORESIGHT_WriteAPDPReg(AP reg 0x01, 0x80011140)
T3F74 000:381.587 - 0.561ms returns 0
T3F74 000:381.599 JLINK_CORESIGHT_ReadAPDPReg(AP reg 0x03)
T3F74 000:382.348   Value=0x00000002
T3F74 000:382.360 - 0.761ms returns 0
T3F74 000:382.367 JLINK_CORESIGHT_ReadAPDPReg(AP reg 0x03)
T3F74 000:382.785   Value=0x00000000
T3F74 000:382.798 - 0.431ms returns 0
T3F74 000:382.806 JLINK_CORESIGHT_WriteAPDPReg(AP reg 0x00, 0x80000002)
T3F74 000:383.220 - 0.414ms returns 0
T3F74 000:383.230 JLINK_CORESIGHT_WriteAPDPReg(AP reg 0x01, 0x80011130)
T3F74 000:383.693 - 0.462ms returns 0
T3F74 000:383.719 JLINK_CORESIGHT_ReadAPDPReg(AP reg 0x03)
T3F74 000:384.135   Value=0x2C020081
T3F74 000:384.146 - 0.427ms returns 0
T3F74 000:384.153 JLINK_CORESIGHT_WriteAPDPReg(AP reg 0x00, 0x80000002)
T3F74 000:384.538 - 0.385ms returns 0
T3F74 000:384.550 JLINK_CORESIGHT_WriteAPDPReg(AP reg 0x01, 0x80011140)
T3F74 000:384.881 - 0.331ms returns 0
T3F74 000:384.890 JLINK_CORESIGHT_ReadAPDPReg(AP reg 0x03)
T3F74 000:385.261   Value=0x00000000
T3F74 000:385.272 - 0.382ms returns 0
T3F74 000:385.279 JLINK_CORESIGHT_WriteAPDPReg(AP reg 0x00, 0x80000002)
T3F74 000:385.593 - 0.313ms returns 0
T3F74 000:385.608 JLINK_CORESIGHT_WriteAPDPReg(AP reg 0x01, 0x80011130)
T3F74 000:385.924 - 0.316ms returns 0
T3F74 000:385.933 JLINK_CORESIGHT_ReadAPDPReg(AP reg 0x03)
T3F74 000:386.312   Value=0x0003CE04
T3F74 000:386.328 - 0.394ms returns 0
T3F74 000:386.344 JLINK_CORESIGHT_WriteAPDPReg(AP reg 0x00, 0x80000002)
T3F74 000:386.668 - 0.323ms returns 0
T3F74 000:386.682 JLINK_CORESIGHT_WriteAPDPReg(AP reg 0x01, 0x80011140)
T3F74 000:387.009 - 0.327ms returns 0
T3F74 000:387.022 JLINK_CORESIGHT_ReadAPDPReg(AP reg 0x03)
T3F74 000:387.478   Value=0x00000002
T3F74 000:387.486 - 0.464ms returns 0
T3F74 000:387.493 JLINK_CORESIGHT_WriteAPDPReg(AP reg 0x00, 0x80000002)
T3F74 000:387.844 - 0.350ms returns 0
T3F74 000:387.854 JLINK_CORESIGHT_WriteAPDPReg(AP reg 0x01, 0x80011120)
T3F74 000:388.510 - 0.655ms returns 0
T3F74 000:388.523 JLINK_CORESIGHT_WriteAPDPReg(AP reg 0x03, 0x73010001)
T3F74 000:389.158 - 0.634ms returns 0
T3F74 000:389.172 JLINK_CORESIGHT_WriteAPDPReg(AP reg 0x00, 0x80000002)
T3F74 000:389.549 - 0.376ms returns 0
T3F74 000:389.571 JLINK_CORESIGHT_WriteAPDPReg(AP reg 0x01, 0x80011140)
T3F74 000:390.006 - 0.435ms returns 0
T3F74 000:390.019 JLINK_CORESIGHT_ReadAPDPReg(AP reg 0x03)
T3F74 000:390.429   Value=0x00000002
T3F74 000:390.439 - 0.419ms returns 0
T3F74 000:390.446 JLINK_CORESIGHT_WriteAPDPReg(AP reg 0x00, 0x80000002)
T3F74 000:390.834 - 0.388ms returns 0
T3F74 000:390.842 JLINK_CORESIGHT_WriteAPDPReg(AP reg 0x01, 0x80011120)
T3F74 000:391.181 - 0.338ms returns 0
T3F74 000:391.195 JLINK_CORESIGHT_WriteAPDPReg(AP reg 0x03, 0x0000038C)
T3F74 000:391.533 - 0.338ms returns 0
T3F74 000:391.540 JLINK_CORESIGHT_WriteAPDPReg(AP reg 0x00, 0x80000002)
T3F74 000:391.885 - 0.344ms returns 0
T3F74 000:391.901 JLINK_CORESIGHT_WriteAPDPReg(AP reg 0x01, 0x80011140)
T3F74 000:392.337 - 0.435ms returns 0
T3F74 000:392.349 JLINK_CORESIGHT_ReadAPDPReg(AP reg 0x03)
T3F74 000:392.749   Value=0x00000002
T3F74 000:392.758 - 0.408ms returns 0
T3F74 000:392.763 JLINK_CORESIGHT_ReadAPDPReg(AP reg 0x03)
T3F74 000:393.158   Value=0x00000002
T3F74 000:393.171 - 0.407ms returns 0
T3F74 000:393.178 JLINK_CORESIGHT_ReadAPDPReg(AP reg 0x03)
T3F74 000:393.540   Value=0x00000002
T3F74 000:393.547 - 0.368ms returns 0
T3F74 000:393.552 JLINK_CORESIGHT_ReadAPDPReg(AP reg 0x03)
T3F74 000:393.886   Value=0x00000002
T3F74 000:393.898 - 0.345ms returns 0
T3F74 000:393.905 JLINK_CORESIGHT_ReadAPDPReg(AP reg 0x03)
T3F74 000:394.317   Value=0x00000002
T3F74 000:394.325 - 0.420ms returns 0
T3F74 000:394.331 JLINK_CORESIGHT_ReadAPDPReg(AP reg 0x03)
T3F74 000:394.752   Value=0x00000000
T3F74 000:394.762 - 0.430ms returns 0
T3F74 000:394.768 JLINK_CORESIGHT_WriteAPDPReg(AP reg 0x00, 0x80000002)
T3F74 000:395.179 - 0.411ms returns 0
T3F74 000:395.195 JLINK_CORESIGHT_WriteAPDPReg(AP reg 0x01, 0x80011130)
T3F74 000:395.643 - 0.447ms returns 0
T3F74 000:395.654 JLINK_CORESIGHT_ReadAPDPReg(AP reg 0x03)
T3F74 000:396.055   Value=0x73020081
T3F74 000:396.075 - 0.412ms returns 0
T3F74 000:396.082 JLINK_CORESIGHT_WriteAPDPReg(AP reg 0x00, 0x80000002)
T3F74 000:396.418 - 0.336ms returns 0
T3F74 000:396.432 JLINK_CORESIGHT_WriteAPDPReg(AP reg 0x01, 0x80011140)
T3F74 000:396.769 - 0.337ms returns 0
T3F74 000:396.778 JLINK_CORESIGHT_ReadAPDPReg(AP reg 0x03)
T3F74 000:397.164   Value=0x00000000
T3F74 000:397.177 - 0.398ms returns 0
T3F74 000:397.184 JLINK_CORESIGHT_WriteAPDPReg(AP reg 0x00, 0x80000002)
T3F74 000:397.488 - 0.304ms returns 0
T3F74 000:397.495 JLINK_CORESIGHT_WriteAPDPReg(AP reg 0x01, 0x80011130)
T3F74 000:397.865 - 0.369ms returns 0
T3F74 000:397.873 JLINK_CORESIGHT_ReadAPDPReg(AP reg 0x03)
T3F74 000:398.225   Value=0x00038902
T3F74 000:398.232 - 0.358ms returns 0
T3F74 000:398.239 JLINK_CORESIGHT_WriteAPDPReg(AP reg 0x00, 0x80000002)
T3F74 000:398.549 - 0.310ms returns 0
T3F74 000:398.562 JLINK_CORESIGHT_WriteAPDPReg(AP reg 0x01, 0x80011140)
T3F74 000:398.870 - 0.307ms returns 0
T3F74 000:398.886 JLINK_CORESIGHT_ReadAPDPReg(AP reg 0x03)
T3F74 000:399.268   Value=0x00000002
T3F74 000:399.276 - 0.390ms returns 0
T3F74 000:399.282 JLINK_CORESIGHT_WriteAPDPReg(AP reg 0x00, 0x80000002)
T3F74 000:399.617 - 0.334ms returns 0
T3F74 000:399.630 JLINK_CORESIGHT_WriteAPDPReg(AP reg 0x01, 0x80011120)
T3F74 000:400.038 - 0.407ms returns 0
T3F74 000:400.049 JLINK_CORESIGHT_WriteAPDPReg(AP reg 0x03, 0x75010001)
T3F74 000:400.372 - 0.323ms returns 0
T3F74 000:400.384 JLINK_CORESIGHT_WriteAPDPReg(AP reg 0x00, 0x80000002)
T3F74 000:400.708 - 0.324ms returns 0
T3F74 000:400.721 JLINK_CORESIGHT_WriteAPDPReg(AP reg 0x01, 0x80011140)
T3F74 000:401.008 - 0.287ms returns 0
T3F74 000:401.023 JLINK_CORESIGHT_ReadAPDPReg(AP reg 0x03)
T3F74 000:401.388   Value=0x00000002
T3F74 000:401.397 - 0.374ms returns 0
T3F74 000:401.407 JLINK_CORESIGHT_WriteAPDPReg(AP reg 0x00, 0x80000002)
T3F74 000:401.760 - 0.353ms returns 0
T3F74 000:401.776 JLINK_CORESIGHT_WriteAPDPReg(AP reg 0x01, 0x80011120)
T3F74 000:402.163 - 0.386ms returns 0
T3F74 000:402.176 JLINK_CORESIGHT_WriteAPDPReg(AP reg 0x03, 0x0000038A)
T3F74 000:402.590 - 0.413ms returns 0
T3F74 000:402.605 JLINK_CORESIGHT_WriteAPDPReg(AP reg 0x00, 0x80000002)
T3F74 000:403.011 - 0.406ms returns 0
T3F74 000:403.025 JLINK_CORESIGHT_WriteAPDPReg(AP reg 0x01, 0x80011140)
T3F74 000:403.395 - 0.370ms returns 0
T3F74 000:403.412 JLINK_CORESIGHT_ReadAPDPReg(AP reg 0x03)
T3F74 000:403.789   Value=0x00000002
T3F74 000:403.800 - 0.388ms returns 0
T3F74 000:403.843 JLINK_CORESIGHT_ReadAPDPReg(AP reg 0x03)
T3F74 000:404.254   Value=0x00000002
T3F74 000:404.262 - 0.419ms returns 0
T3F74 000:404.269 JLINK_CORESIGHT_ReadAPDPReg(AP reg 0x03)
T3F74 000:404.711   Value=0x00000002
T3F74 000:404.721 - 0.452ms returns 0
T3F74 000:404.727 JLINK_CORESIGHT_ReadAPDPReg(AP reg 0x03)
T3F74 000:405.131   Value=0x00000002
T3F74 000:405.140 - 0.412ms returns 0
T3F74 000:405.146 JLINK_CORESIGHT_ReadAPDPReg(AP reg 0x03)
T3F74 000:405.515   Value=0x00000002
T3F74 000:405.524 - 0.377ms returns 0
T3F74 000:405.530 JLINK_CORESIGHT_ReadAPDPReg(AP reg 0x03)
T3F74 000:405.923   Value=0x00000000
T3F74 000:405.930 - 0.400ms returns 0
T3F74 000:405.937 JLINK_CORESIGHT_WriteAPDPReg(AP reg 0x00, 0x80000002)
T3F74 000:406.288 - 0.351ms returns 0
T3F74 000:406.297 JLINK_CORESIGHT_WriteAPDPReg(AP reg 0x01, 0x80011130)
T3F74 000:406.662 - 0.365ms returns 0
T3F74 000:406.672 JLINK_CORESIGHT_ReadAPDPReg(AP reg 0x03)
T3F74 000:407.050   Value=0x75020081
T3F74 000:407.058 - 0.386ms returns 0
T3F74 000:407.064 JLINK_CORESIGHT_WriteAPDPReg(AP reg 0x00, 0x80000002)
T3F74 000:407.361 - 0.296ms returns 0
T3F74 000:407.370 JLINK_CORESIGHT_WriteAPDPReg(AP reg 0x01, 0x80011140)
T3F74 000:407.712 - 0.339ms returns 0
T3F74 000:407.721 JLINK_CORESIGHT_ReadAPDPReg(AP reg 0x03)
T3F74 000:408.128   Value=0x00000000
T3F74 000:408.138 - 0.416ms returns 0
T3F74 000:408.145 JLINK_CORESIGHT_WriteAPDPReg(AP reg 0x00, 0x80000002)
T3F74 000:408.491 - 0.346ms returns 0
T3F74 000:408.501 JLINK_CORESIGHT_WriteAPDPReg(AP reg 0x01, 0x80011130)
T3F74 000:408.803 - 0.301ms returns 0
T3F74 000:408.813 JLINK_CORESIGHT_ReadAPDPReg(AP reg 0x03)
T3F74 000:409.176   Value=0x00038702
T3F74 000:409.189 - 0.376ms returns 0
T3F74 000:409.203 JLINK_CORESIGHT_WriteAPDPReg(AP reg 0x00, 0x80000002)
T3F74 000:409.536 - 0.333ms returns 0
T3F74 000:409.550 JLINK_CORESIGHT_WriteAPDPReg(AP reg 0x01, 0x80011140)
T3F74 000:409.908 - 0.358ms returns 0
T3F74 000:409.922 JLINK_CORESIGHT_ReadAPDPReg(AP reg 0x03)
T3F74 000:410.282   Value=0x00000002
T3F74 000:410.290 - 0.368ms returns 0
T3F74 000:410.297 JLINK_CORESIGHT_WriteAPDPReg(AP reg 0x00, 0x80000002)
T3F74 000:410.619 - 0.322ms returns 0
T3F74 000:410.627 JLINK_CORESIGHT_WriteAPDPReg(AP reg 0x01, 0x80011120)
T3F74 000:410.966 - 0.339ms returns 0
T3F74 000:410.975 JLINK_CORESIGHT_WriteAPDPReg(AP reg 0x03, 0x4F010001)
T3F74 000:411.334 - 0.359ms returns 0
T3F74 000:411.348 JLINK_CORESIGHT_WriteAPDPReg(AP reg 0x00, 0x80000002)
T3F74 000:411.655 - 0.307ms returns 0
T3F74 000:411.669 JLINK_CORESIGHT_WriteAPDPReg(AP reg 0x01, 0x80011140)
T3F74 000:411.991 - 0.322ms returns 0
T3F74 000:411.997 JLINK_CORESIGHT_ReadAPDPReg(AP reg 0x03)
T3F74 000:412.410   Value=0x00000002
T3F74 000:412.418 - 0.421ms returns 0
T3F74 000:412.425 JLINK_CORESIGHT_WriteAPDPReg(AP reg 0x00, 0x80000002)
T3F74 000:412.757 - 0.332ms returns 0
T3F74 000:412.771 JLINK_CORESIGHT_WriteAPDPReg(AP reg 0x01, 0x80011120)
T3F74 000:413.121 - 0.348ms returns 0
T3F74 000:413.141 JLINK_CORESIGHT_WriteAPDPReg(AP reg 0x03, 0x000003B0)
T3F74 000:413.430 - 0.288ms returns 0
T3F74 000:413.443 JLINK_CORESIGHT_WriteAPDPReg(AP reg 0x00, 0x80000002)
T3F74 000:413.757 - 0.314ms returns 0
T3F74 000:413.766 JLINK_CORESIGHT_WriteAPDPReg(AP reg 0x01, 0x80011140)
T3F74 000:414.118 - 0.351ms returns 0
T3F74 000:414.130 JLINK_CORESIGHT_ReadAPDPReg(AP reg 0x03)
T3F74 000:414.552   Value=0x00000002
T3F74 000:414.559 - 0.428ms returns 0
T3F74 000:414.564 JLINK_CORESIGHT_ReadAPDPReg(AP reg 0x03)
T3F74 000:414.886   Value=0x00000002
T3F74 000:414.894 - 0.330ms returns 0
T3F74 000:414.900 JLINK_CORESIGHT_ReadAPDPReg(AP reg 0x03)
T3F74 000:415.279   Value=0x00000002
T3F74 000:415.321 - 0.420ms returns 0
T3F74 000:415.328 JLINK_CORESIGHT_ReadAPDPReg(AP reg 0x03)
T3F74 000:415.716   Value=0x00000002
T3F74 000:415.735 - 0.407ms returns 0
T3F74 000:415.759 JLINK_CORESIGHT_ReadAPDPReg(AP reg 0x03)
T3F74 000:416.136   Value=0x00000000
T3F74 000:416.147 - 0.388ms returns 0
T3F74 000:416.165 JLINK_CORESIGHT_WriteAPDPReg(AP reg 0x00, 0x80000002)
T3F74 000:416.522 - 0.357ms returns 0
T3F74 000:416.532 JLINK_CORESIGHT_WriteAPDPReg(AP reg 0x01, 0x80011130)
T3F74 000:416.841 - 0.309ms returns 0
T3F74 000:416.848 JLINK_CORESIGHT_ReadAPDPReg(AP reg 0x03)
T3F74 000:417.254   Value=0x4F0B0081
T3F74 000:417.266 - 0.417ms returns 0
T3F74 000:417.273 JLINK_CORESIGHT_WriteAPDPReg(AP reg 0x00, 0x80000002)
T3F74 000:417.638 - 0.364ms returns 0
T3F74 000:417.647 JLINK_CORESIGHT_WriteAPDPReg(AP reg 0x01, 0x80011140)
T3F74 000:418.031 - 0.384ms returns 0
T3F74 000:418.043 JLINK_CORESIGHT_ReadAPDPReg(AP reg 0x03)
T3F74 000:418.414   Value=0x00000000
T3F74 000:418.422 - 0.378ms returns 0
T3F74 000:418.428 JLINK_CORESIGHT_WriteAPDPReg(AP reg 0x00, 0x80000002)
T3F74 000:418.742 - 0.313ms returns 0
T3F74 000:418.748 JLINK_CORESIGHT_WriteAPDPReg(AP reg 0x01, 0x80011130)
T3F74 000:419.074 - 0.325ms returns 0
T3F74 000:419.085 JLINK_CORESIGHT_ReadAPDPReg(AP reg 0x03)
T3F74 000:419.499   Value=0xE03F0000
T3F74 000:419.508 - 0.422ms returns 0
T3F74 000:419.515 JLINK_CORESIGHT_WriteAPDPReg(AP reg 0x00, 0x80000002)
T3F74 000:419.837 - 0.322ms returns 0
T3F74 000:419.843 JLINK_CORESIGHT_WriteAPDPReg(AP reg 0x01, 0x80011140)
T3F74 000:420.183 - 0.339ms returns 0
T3F74 000:420.197 JLINK_CORESIGHT_ReadAPDPReg(AP reg 0x03)
T3F74 000:420.592   Value=0x00000000
T3F74 000:420.602 - 0.405ms returns 0
T3F74 000:420.608 JLINK_CORESIGHT_WriteAPDPReg(AP reg 0x00, 0x80000002)
T3F74 000:420.979 - 0.370ms returns 0
T3F74 000:420.991 JLINK_CORESIGHT_WriteAPDPReg(AP reg 0x01, 0x80011130)
T3F74 000:421.281 - 0.289ms returns 0
T3F74 000:421.290 JLINK_CORESIGHT_ReadAPDPReg(AP reg 0x03)
T3F74 000:421.663   Value=0x00000000
T3F74 000:421.675 - 0.384ms returns 0
T3F74 000:421.681 JLINK_CORESIGHT_WriteAPDPReg(AP reg 0x00, 0x80000002)
T3F74 000:421.997 - 0.315ms returns 0
T3F74 000:422.009 JLINK_CORESIGHT_WriteAPDPReg(AP reg 0x01, 0x80011140)
T3F74 000:422.367 - 0.357ms returns 0
T3F74 000:422.377 JLINK_CORESIGHT_ReadAPDPReg(AP reg 0x03)
T3F74 000:422.785   Value=0x00000000
T3F74 000:422.792 - 0.415ms returns 0
T3F74 000:422.798 JLINK_CORESIGHT_WriteAPDPReg(AP reg 0x00, 0x80000002)
T3F74 000:423.134 - 0.335ms returns 0
T3F74 000:423.147 JLINK_CORESIGHT_WriteAPDPReg(AP reg 0x01, 0x80011130)
T3F74 000:423.555 - 0.408ms returns 0
T3F74 000:423.566 JLINK_CORESIGHT_ReadAPDPReg(AP reg 0x03)
T3F74 000:423.964   Value=0x03870000
T3F74 000:423.977 - 0.411ms returns 0
T3F74 000:424.047 JLINK_CORESIGHT_WriteAPDPReg(AP reg 0x00, 0x80000002)
T3F74 000:424.370 - 0.322ms returns 0
T3F74 000:424.384 JLINK_CORESIGHT_WriteAPDPReg(AP reg 0x01, 0x80011140)
T3F74 000:424.744 - 0.360ms returns 0
T3F74 000:424.753 JLINK_CORESIGHT_ReadAPDPReg(AP reg 0x03)
T3F74 000:425.129   Value=0x00000002
T3F74 000:425.140 - 0.386ms returns 0
T3F74 000:425.146 JLINK_CORESIGHT_WriteAPDPReg(AP reg 0x00, 0x80000002)
T3F74 000:425.521 - 0.375ms returns 0
T3F74 000:425.529 JLINK_CORESIGHT_WriteAPDPReg(AP reg 0x01, 0x80011120)
T3F74 000:425.912 - 0.382ms returns 0
T3F74 000:425.926 JLINK_CORESIGHT_WriteAPDPReg(AP reg 0x03, 0x2C010001)
T3F74 000:426.270 - 0.343ms returns 0
T3F74 000:426.282 JLINK_CORESIGHT_WriteAPDPReg(AP reg 0x00, 0x80000002)
T3F74 000:426.652 - 0.370ms returns 0
T3F74 000:426.662 JLINK_CORESIGHT_WriteAPDPReg(AP reg 0x01, 0x80011140)
T3F74 000:426.993 - 0.331ms returns 0
T3F74 000:426.999 JLINK_CORESIGHT_ReadAPDPReg(AP reg 0x03)
T3F74 000:427.414   Value=0x00000002
T3F74 000:427.422 - 0.423ms returns 0
T3F74 000:427.429 JLINK_CORESIGHT_WriteAPDPReg(AP reg 0x00, 0x80000002)
T3F74 000:427.758 - 0.328ms returns 0
T3F74 000:427.772 JLINK_CORESIGHT_WriteAPDPReg(AP reg 0x01, 0x80011120)
T3F74 000:428.158 - 0.386ms returns 0
T3F74 000:428.173 JLINK_CORESIGHT_WriteAPDPReg(AP reg 0x03, 0x000003D3)
T3F74 000:428.494 - 0.321ms returns 0
T3F74 000:428.504 JLINK_CORESIGHT_WriteAPDPReg(AP reg 0x00, 0x80000002)
T3F74 000:428.836 - 0.332ms returns 0
T3F74 000:428.846 JLINK_CORESIGHT_WriteAPDPReg(AP reg 0x01, 0x80011140)
T3F74 000:429.215 - 0.369ms returns 0
T3F74 000:429.239 JLINK_CORESIGHT_ReadAPDPReg(AP reg 0x03)
T3F74 000:429.689   Value=0x00000000
T3F74 000:429.701 - 0.461ms returns 0
T3F74 000:429.712 JLINK_CORESIGHT_WriteAPDPReg(AP reg 0x00, 0x80000002)
T3F74 000:430.005 - 0.293ms returns 0
T3F74 000:430.031 JLINK_CORESIGHT_WriteAPDPReg(AP reg 0x01, 0x80011130)
T3F74 000:430.414 - 0.383ms returns 0
T3F74 000:430.432 JLINK_CORESIGHT_ReadAPDPReg(AP reg 0x03)
T3F74 000:430.877   Value=0x2C020081
T3F74 000:430.891 - 0.458ms returns 0
T3F74 000:430.902 JLINK_CORESIGHT_WriteAPDPReg(AP reg 0x00, 0x80000002)
T3F74 000:431.256 - 0.354ms returns 0
T3F74 000:431.274 JLINK_CORESIGHT_WriteAPDPReg(AP reg 0x01, 0x80011140)
T3F74 000:431.673 - 0.399ms returns 0
T3F74 000:431.690 JLINK_CORESIGHT_ReadAPDPReg(AP reg 0x03)
T3F74 000:432.132   Value=0x00000000
T3F74 000:432.143 - 0.452ms returns 0
T3F74 000:432.154 JLINK_CORESIGHT_WriteAPDPReg(AP reg 0x00, 0x80000002)
T3F74 000:432.526 - 0.369ms returns 0
T3F74 000:432.553 JLINK_CORESIGHT_WriteAPDPReg(AP reg 0x01, 0x80011130)
T3F74 000:432.927 - 0.374ms returns 0
T3F74 000:432.938 JLINK_CORESIGHT_ReadAPDPReg(AP reg 0x03)
T3F74 000:433.305   Value=0x0003CE04
T3F74 000:433.316 - 0.377ms returns 0
T3F74 000:433.361 JLINK_CORESIGHT_WriteAPDPReg(AP reg 0x00, 0x80000002)
T3F74 000:433.716 - 0.355ms returns 0
T3F74 000:433.724 JLINK_CORESIGHT_WriteAPDPReg(AP reg 0x01, 0x80011140)
T3F74 000:434.068 - 0.344ms returns 0
T3F74 000:434.079 JLINK_CORESIGHT_ReadAPDPReg(AP reg 0x03)
T3F74 000:434.458   Value=0x00000002
T3F74 000:434.465 - 0.386ms returns 0
T3F74 000:434.471 JLINK_CORESIGHT_WriteAPDPReg(AP reg 0x00, 0x80000002)
T3F74 000:434.809 - 0.338ms returns 0
T3F74 000:434.828 JLINK_CORESIGHT_WriteAPDPReg(AP reg 0x01, 0x80011120)
T3F74 000:435.211 - 0.383ms returns 0
T3F74 000:435.221 JLINK_CORESIGHT_WriteAPDPReg(AP reg 0x03, 0x73010001)
T3F74 000:435.531 - 0.309ms returns 0
T3F74 000:435.538 JLINK_CORESIGHT_WriteAPDPReg(AP reg 0x00, 0x80000002)
T3F74 000:435.914 - 0.376ms returns 0
T3F74 000:435.924 JLINK_CORESIGHT_WriteAPDPReg(AP reg 0x01, 0x80011140)
T3F74 000:436.282 - 0.357ms returns 0
T3F74 000:436.294 JLINK_CORESIGHT_ReadAPDPReg(AP reg 0x03)
T3F74 000:436.714   Value=0x00000002
T3F74 000:436.724 - 0.430ms returns 0
T3F74 000:436.731 JLINK_CORESIGHT_WriteAPDPReg(AP reg 0x00, 0x80000002)
T3F74 000:437.029 - 0.297ms returns 0
T3F74 000:437.041 JLINK_CORESIGHT_WriteAPDPReg(AP reg 0x01, 0x80011120)
T3F74 000:437.374 - 0.333ms returns 0
T3F74 000:437.386 JLINK_CORESIGHT_WriteAPDPReg(AP reg 0x03, 0x0000038C)
T3F74 000:437.744 - 0.357ms returns 0
T3F74 000:437.755 JLINK_CORESIGHT_WriteAPDPReg(AP reg 0x00, 0x80000002)
T3F74 000:438.090 - 0.335ms returns 0
T3F74 000:438.098 JLINK_CORESIGHT_WriteAPDPReg(AP reg 0x01, 0x80011140)
T3F74 000:438.418 - 0.319ms returns 0
T3F74 000:438.432 JLINK_CORESIGHT_ReadAPDPReg(AP reg 0x03)
T3F74 000:438.838   Value=0x00000002
T3F74 000:438.847 - 0.415ms returns 0
T3F74 000:438.853 JLINK_CORESIGHT_ReadAPDPReg(AP reg 0x03)
T3F74 000:439.230   Value=0x00000002
T3F74 000:439.239 - 0.386ms returns 0
T3F74 000:439.246 JLINK_CORESIGHT_ReadAPDPReg(AP reg 0x03)
T3F74 000:439.616   Value=0x00000002
T3F74 000:439.625 - 0.379ms returns 0
T3F74 000:439.632 JLINK_CORESIGHT_ReadAPDPReg(AP reg 0x03)
T3F74 000:440.037   Value=0x00000002
T3F74 000:440.048 - 0.416ms returns 0
T3F74 000:440.055 JLINK_CORESIGHT_ReadAPDPReg(AP reg 0x03)
T3F74 000:440.411   Value=0x00000000
T3F74 000:440.418 - 0.363ms returns 0
T3F74 000:440.423 JLINK_CORESIGHT_WriteAPDPReg(AP reg 0x00, 0x80000002)
T3F74 000:440.745 - 0.321ms returns 0
T3F74 000:440.756 JLINK_CORESIGHT_WriteAPDPReg(AP reg 0x01, 0x80011130)
T3F74 000:441.096 - 0.337ms returns 0
T3F74 000:441.115 JLINK_CORESIGHT_ReadAPDPReg(AP reg 0x03)
T3F74 000:441.503   Value=0x73020081
T3F74 000:441.515 - 0.400ms returns 0
T3F74 000:441.521 JLINK_CORESIGHT_WriteAPDPReg(AP reg 0x00, 0x80000002)
T3F74 000:441.931 - 0.410ms returns 0
T3F74 000:441.945 JLINK_CORESIGHT_WriteAPDPReg(AP reg 0x01, 0x80011140)
T3F74 000:442.301 - 0.355ms returns 0
T3F74 000:442.312 JLINK_CORESIGHT_ReadAPDPReg(AP reg 0x03)
T3F74 000:442.681   Value=0x00000000
T3F74 000:442.693 - 0.381ms returns 0
T3F74 000:442.701 JLINK_CORESIGHT_WriteAPDPReg(AP reg 0x00, 0x80000002)
T3F74 000:443.085 - 0.384ms returns 0
T3F74 000:443.094 JLINK_CORESIGHT_WriteAPDPReg(AP reg 0x01, 0x80011130)
T3F74 000:443.426 - 0.332ms returns 0
T3F74 000:443.439 JLINK_CORESIGHT_ReadAPDPReg(AP reg 0x03)
T3F74 000:443.899   Value=0x00038902
T3F74 000:443.911 - 0.472ms returns 0
T3F74 000:443.919 JLINK_CORESIGHT_WriteAPDPReg(AP reg 0x00, 0x80000002)
T3F74 000:444.268 - 0.348ms returns 0
T3F74 000:444.281 JLINK_CORESIGHT_WriteAPDPReg(AP reg 0x01, 0x80011140)
T3F74 000:444.625 - 0.344ms returns 0
T3F74 000:444.640 JLINK_CORESIGHT_ReadAPDPReg(AP reg 0x03)
T3F74 000:445.050   Value=0x00000002
T3F74 000:445.060 - 0.419ms returns 0
T3F74 000:445.067 JLINK_CORESIGHT_WriteAPDPReg(AP reg 0x00, 0x80000002)
T3F74 000:445.410 - 0.343ms returns 0
T3F74 000:445.423 JLINK_CORESIGHT_WriteAPDPReg(AP reg 0x01, 0x80011120)
T3F74 000:445.762 - 0.338ms returns 0
T3F74 000:445.777 JLINK_CORESIGHT_WriteAPDPReg(AP reg 0x03, 0x75010001)
T3F74 000:446.123 - 0.346ms returns 0
T3F74 000:446.136 JLINK_CORESIGHT_WriteAPDPReg(AP reg 0x00, 0x80000002)
T3F74 000:446.434 - 0.297ms returns 0
T3F74 000:446.442 JLINK_CORESIGHT_WriteAPDPReg(AP reg 0x01, 0x80011140)
T3F74 000:446.758 - 0.316ms returns 0
T3F74 000:446.772 JLINK_CORESIGHT_ReadAPDPReg(AP reg 0x03)
T3F74 000:447.182   Value=0x00000002
T3F74 000:447.190 - 0.418ms returns 0
T3F74 000:447.197 JLINK_CORESIGHT_WriteAPDPReg(AP reg 0x00, 0x80000002)
T3F74 000:447.539 - 0.342ms returns 0
T3F74 000:447.548 JLINK_CORESIGHT_WriteAPDPReg(AP reg 0x01, 0x80011120)
T3F74 000:447.866 - 0.317ms returns 0
T3F74 000:447.877 JLINK_CORESIGHT_WriteAPDPReg(AP reg 0x03, 0x0000038A)
T3F74 000:448.286 - 0.407ms returns 0
T3F74 000:448.302 JLINK_CORESIGHT_WriteAPDPReg(AP reg 0x00, 0x80000002)
T3F74 000:448.673 - 0.370ms returns 0
T3F74 000:448.684 JLINK_CORESIGHT_WriteAPDPReg(AP reg 0x01, 0x80011140)
T3F74 000:449.025 - 0.341ms returns 0
T3F74 000:449.033 JLINK_CORESIGHT_ReadAPDPReg(AP reg 0x03)
T3F74 000:449.413   Value=0x00000002
T3F74 000:449.426 - 0.392ms returns 0
T3F74 000:449.432 JLINK_CORESIGHT_ReadAPDPReg(AP reg 0x03)
T3F74 000:449.785   Value=0x00000002
T3F74 000:449.796 - 0.363ms returns 0
T3F74 000:449.803 JLINK_CORESIGHT_ReadAPDPReg(AP reg 0x03)
T3F74 000:450.166   Value=0x00000002
T3F74 000:450.172 - 0.369ms returns 0
T3F74 000:450.178 JLINK_CORESIGHT_ReadAPDPReg(AP reg 0x03)
T3F74 000:450.588   Value=0x00000000
T3F74 000:450.598 - 0.420ms returns 0
T3F74 000:450.605 JLINK_CORESIGHT_WriteAPDPReg(AP reg 0x00, 0x80000002)
T3F74 000:450.977 - 0.372ms returns 0
T3F74 000:450.991 JLINK_CORESIGHT_WriteAPDPReg(AP reg 0x01, 0x80011130)
T3F74 000:451.412 - 0.420ms returns 0
T3F74 000:451.424 JLINK_CORESIGHT_ReadAPDPReg(AP reg 0x03)
T3F74 000:451.797   Value=0x75020081
T3F74 000:451.804 - 0.380ms returns 0
T3F74 000:451.810 JLINK_CORESIGHT_WriteAPDPReg(AP reg 0x00, 0x80000002)
T3F74 000:452.134 - 0.323ms returns 0
T3F74 000:452.140 JLINK_CORESIGHT_WriteAPDPReg(AP reg 0x01, 0x80011140)
T3F74 000:452.466 - 0.325ms returns 0
T3F74 000:452.479 JLINK_CORESIGHT_ReadAPDPReg(AP reg 0x03)
T3F74 000:452.879   Value=0x00000000
T3F74 000:452.889 - 0.410ms returns 0
T3F74 000:452.896 JLINK_CORESIGHT_WriteAPDPReg(AP reg 0x00, 0x80000002)
T3F74 000:453.248 - 0.350ms returns 0
T3F74 000:453.260 JLINK_CORESIGHT_WriteAPDPReg(AP reg 0x01, 0x80011130)
T3F74 000:453.592 - 0.331ms returns 0
T3F74 000:453.600 JLINK_CORESIGHT_ReadAPDPReg(AP reg 0x03)
T3F74 000:453.937   Value=0x00038702
T3F74 000:453.942 - 0.342ms returns 0
T3F74 000:454.076 JLINK_CORESIGHT_WriteAPDPReg(AP reg 0x00, 0x80000002)
T3F74 000:454.371 - 0.295ms returns 0
T3F74 000:454.377 JLINK_CORESIGHT_WriteAPDPReg(AP reg 0x01, 0x80011140)
T3F74 000:454.709 - 0.331ms returns 0
T3F74 000:454.717 JLINK_CORESIGHT_ReadAPDPReg(AP reg 0x03)
T3F74 000:455.120   Value=0x00000002
T3F74 000:455.139 - 0.422ms returns 0
T3F74 000:455.146 JLINK_CORESIGHT_WriteAPDPReg(AP reg 0x00, 0x80000002)
T3F74 000:455.466 - 0.320ms returns 0
T3F74 000:455.475 JLINK_CORESIGHT_WriteAPDPReg(AP reg 0x01, 0x80011120)
T3F74 000:455.831 - 0.356ms returns 0
T3F74 000:455.837 JLINK_CORESIGHT_WriteAPDPReg(AP reg 0x03, 0x4F010001)
T3F74 000:456.159 - 0.321ms returns 0
T3F74 000:456.165 JLINK_CORESIGHT_WriteAPDPReg(AP reg 0x00, 0x80000002)
T3F74 000:456.518 - 0.353ms returns 0
